
T7F3C 000:700 SEGGER J-Link V4.86b Log File (0001ms, 0277ms total)
T7F3C 000:700 DLL Compiled: Jun 27 2014 20:11:00 (0002ms, 0278ms total)
T7F3C 000:700 Logging started @ 2018-05-20 18:24 (0002ms, 0278ms total)
T7F3C 000:702 JLINK_SetWarnOutHandler(...) (0000ms, 0278ms total)
T7F3C 000:702 JLINK_OpenEx(...)
Firmware: J-Link ARM-OB STM32 compiled Aug 22 2012 19:52:04
Hardware: V7.00
S/N: 20090928
Feature(s): RDI,FlashDL,FlashBP,JFlash,GDBFull  returns O.K. (0271ms, 0549ms total)
T7F3C 000:973 JLINK_SetErrorOutHandler(...) (0000ms, 0549ms total)
T7F3C 000:973 JLINK_ExecCommand("ProjectFile = "E:\2018-Robomaster\IFR-RM\2018热身赛前\IFR_Engineering_Main_YuXin\KEIL\JLinkSettings.ini"", ...)Device "STM32F405RG" selected (1024 KB flash, 128 KB RAM).  returns 0x00 (0031ms, 0580ms total)
T7F3C 001:053 JLINK_ExecCommand("Device = STM32F405RGTx", ...)Device "STM32F405RG" selected (1024 KB flash, 128 KB RAM).  returns 0x00 (0043ms, 0624ms total)
T7F3C 001:097 JLINK_ExecCommand("DisableConnectionTimeout", ...)  returns 0x01 (0000ms, 0624ms total)
T7F3C 001:097 JLINK_GetHardwareVersion()  returns 0x11170 (0000ms, 0624ms total)
T7F3C 001:097 JLINK_GetDLLVersion()  returns 48602 (0000ms, 0624ms total)
T7F3C 001:097 JLINK_GetFirmwareString(...) (0000ms, 0624ms total)
T7F3C 001:152 JLINK_GetDLLVersion()  returns 48602 (0000ms, 0624ms total)
T7F3C 001:152 JLINK_GetCompileDateTime() (0000ms, 0624ms total)
T7F3C 001:166 JLINK_GetFirmwareString(...) (0000ms, 0624ms total)
T7F3C 001:178 JLINK_GetHardwareVersion()  returns 0x11170 (0000ms, 0624ms total)
T7F3C 001:232 JLINK_TIF_Select(JLINKARM_TIF_SWD)  returns 0x00 (0000ms, 0624ms total)
T7F3C 001:232 JLINK_SetSpeed(10000) (0000ms, 0624ms total)
T7F3C 001:232 JLINK_GetId() >0x108 TIF>Found SWD-DP with ID 0x2BA01477 >0x0D TIF> >0x28 TIF> >0x0D TIF> >0x28 TIF> >0x0D TIF> >0x21 TIF> >0x0D TIF> >0x28 TIF> >0x0D TIF> >0x28 TIF> >0x0D TIF> >0x28 TIF> >0x0D TIF> >0x21 TIF> >0x0D TIF> >0x21 TIF> >0x0D TIF> >0x28 TIF> >0x0D TIF> >0x21 TIF> >0x0D TIF> >0x21 TIF> >0x0D TIF> >0x28 TIF> >0x0D TIF> >0x21 TIF> >0x0D TIF> >0x21 TIF> >0x108 TIF>Found SWD-DP with ID 0x2BA01477 >0x0D TIF> >0x21 TIF> >0x0D TIF> >0x28 TIF> >0x0D TIF> >0x28 TIF> >0x0D TIF> >0x21 TIF>
 >0x0D TIF> >0x28 TIF> >0x0D TIF> >0x21 TIF> >0x0D TIF> >0x21 TIF> >0x0D TIF> >0x21 TIF> >0x0D TIF> >0x21 TIF> >0x0D TIF> >0x28 TIF> >0x0D TIF> >0x28 TIF> >0x0D TIF> >0x21 TIF> >0x0D TIF> >0x28 TIF> >0x0D TIF> >0x28 TIF> >0x0D TIF> >0x28 TIF> >0x0D TIF> >0x21 TIF> >0x0D TIF> >0x21 TIF> >0x0D TIF> >0x28 TIF> >0x0D TIF> >0x21 TIF> >0x0D TIF> >0x21 TIF>Found Cortex-M4 r0p1, Little endian. -- CPU_WriteMem(4 bytes @ 0xE0002000) -- CPU_ReadMem(4 bytes @ 0xE000EDF0) -- CPU_ReadMem(4 bytes @ 0xE0002000)
FPUnit: 6 code (BP) slots and 2 literal slots -- CPU_ReadMem(4 bytes @ 0xE000EDFC) -- CPU_ReadMem(4 bytes @ 0xE0001000) -- CPU_WriteMem(4 bytes @ 0xE0001000) -- CPU_ReadMem(4 bytes @ 0xE00FF010)TPIU fitted. -- CPU_ReadMem(4 bytes @ 0xE00FF014)ETM fitted. -- CPU_ReadMem(4 bytes @ 0xE00FF018) >0x0D TIF> >0x21 TIF>  returns 0x2BA01477 (0095ms, 0719ms total)
T7F3C 001:327 JLINK_GetDLLVersion()  returns 48602 (0000ms, 0719ms total)
T7F3C 001:327 JLINK_CORE_GetFound()  returns 0xE0000FF (0000ms, 0719ms total)
T7F3C 001:339 JLINK_ReadMem (0xE00FF000, 0x0020 Bytes, ...) -- CPU is running -- CPU_ReadMem(32 bytes @ 0xE00FF000) - Data: 03 F0 F0 FF 03 20 F0 FF 03 30 F0 FF 03 10 F0 FF ...  returns 0x00 (0001ms, 0720ms total)
T7F3C 001:340 JLINK_ReadMem (0xE000EFF0, 0x0010 Bytes, ...) -- CPU is running -- CPU_ReadMem(16 bytes @ 0xE000EFF0) - Data: 0D 00 00 00 E0 00 00 00 05 00 00 00 B1 00 00 00  returns 0x00 (0001ms, 0721ms total)
T7F3C 001:341 JLINK_ReadMem (0xE000EFD0, 0x0020 Bytes, ...) -- CPU is running -- CPU_ReadMem(32 bytes @ 0xE000EFD0) - Data: 04 00 00 00 00 00 00 00 00 00 00 00 00 00 00 00 ...  returns 0x00 (0000ms, 0721ms total)
T7F3C 001:341 JLINK_ReadMem (0xE0001FF0, 0x0010 Bytes, ...) -- CPU is running -- CPU_ReadMem(16 bytes @ 0xE0001FF0) - Data: 0D 00 00 00 E0 00 00 00 05 00 00 00 B1 00 00 00  returns 0x00 (0001ms, 0722ms total)
T7F3C 001:342 JLINK_ReadMem (0xE0001FD0, 0x0020 Bytes, ...) -- CPU is running -- CPU_ReadMem(32 bytes @ 0xE0001FD0) - Data: 04 00 00 00 00 00 00 00 00 00 00 00 00 00 00 00 ...  returns 0x00 (0001ms, 0723ms total)
T7F3C 001:343 JLINK_ReadMem (0xE0002FF0, 0x0010 Bytes, ...) -- CPU is running -- CPU_ReadMem(16 bytes @ 0xE0002FF0) - Data: 0D 00 00 00 E0 00 00 00 05 00 00 00 B1 00 00 00  returns 0x00 (0001ms, 0724ms total)
T7F3C 001:344 JLINK_ReadMem (0xE0002FD0, 0x0020 Bytes, ...) -- CPU is running -- CPU_ReadMem(32 bytes @ 0xE0002FD0) - Data: 04 00 00 00 00 00 00 00 00 00 00 00 00 00 00 00 ...  returns 0x00 (0001ms, 0725ms total)
T7F3C 001:345 JLINK_ReadMem (0xE0000FF0, 0x0010 Bytes, ...) -- CPU is running -- CPU_ReadMem(16 bytes @ 0xE0000FF0) - Data: 0D 00 00 00 E0 00 00 00 05 00 00 00 B1 00 00 00  returns 0x00 (0000ms, 0725ms total)
T7F3C 001:345 JLINK_ReadMem (0xE0000FD0, 0x0020 Bytes, ...) -- CPU is running -- CPU_ReadMem(32 bytes @ 0xE0000FD0) - Data: 04 00 00 00 00 00 00 00 00 00 00 00 00 00 00 00 ...  returns 0x00 (0001ms, 0726ms total)
T7F3C 001:346 JLINK_ReadMem (0xE0040FF0, 0x0010 Bytes, ...) -- CPU is running -- CPU_ReadMem(16 bytes @ 0xE0040FF0) - Data: 0D 00 00 00 90 00 00 00 05 00 00 00 B1 00 00 00  returns 0x00 (0001ms, 0727ms total)
T7F3C 001:347 JLINK_ReadMem (0xE0040FD0, 0x0020 Bytes, ...) -- CPU is running -- CPU_ReadMem(32 bytes @ 0xE0040FD0) - Data: 04 00 00 00 00 00 00 00 00 00 00 00 00 00 00 00 ...  returns 0x00 (0001ms, 0728ms total)
T7F3C 001:348 JLINK_ReadMem (0xE0041FF0, 0x0010 Bytes, ...) -- CPU is running -- CPU_ReadMem(16 bytes @ 0xE0041FF0) - Data: 0D 00 00 00 90 00 00 00 05 00 00 00 B1 00 00 00  returns 0x00 (0001ms, 0729ms total)
T7F3C 001:349 JLINK_ReadMem (0xE0041FD0, 0x0020 Bytes, ...) -- CPU is running -- CPU_ReadMem(32 bytes @ 0xE0041FD0) - Data: 04 00 00 00 00 00 00 00 00 00 00 00 00 00 00 00 ...  returns 0x00 (0001ms, 0730ms total)
T7F3C 001:350 JLINK_ReadMemU32(0xE000EF40, 0x0001 Items, ...) -- CPU is running -- CPU_ReadMem(4 bytes @ 0xE000EF40) - Data: 21 00 11 10  returns 0x01 (0000ms, 0730ms total)
T7F3C 001:350 JLINK_ReadMemU32(0xE000EF44, 0x0001 Items, ...) -- CPU is running -- CPU_ReadMem(4 bytes @ 0xE000EF44) - Data: 11 00 00 11  returns 0x01 (0001ms, 0731ms total)
T7F3C 001:351 JLINK_ReadMemU32(0xE000ED00, 0x0001 Items, ...) -- CPU is running -- CPU_ReadMem(4 bytes @ 0xE000ED00) - Data: 41 C2 0F 41  returns 0x01 (0001ms, 0732ms total)
T7F3C 001:352 JLINK_SetResetType(JLINKARM_RESET_TYPE_NORMAL)  returns JLINKARM_RESET_TYPE_NORMAL (0000ms, 0732ms total)
T7F3C 001:352 JLINK_Reset() -- CPU is running -- CPU_WriteMem(4 bytes @ 0xE000EDF0) -- CPU is running -- CPU_WriteMem(4 bytes @ 0xE000EDFC) >0x35 TIF> -- CPU is running -- CPU_WriteMem(4 bytes @ 0xE000ED0C) -- CPU is running -- CPU_ReadMem(4 bytes @ 0xE000EDF0) -- CPU is running -- CPU_ReadMem(4 bytes @ 0xE000EDF0) -- CPU is running -- CPU_WriteMem(4 bytes @ 0xE000EDF0) -- CPU is running -- CPU_WriteMem(4 bytes @ 0xE000EDFC) -- CPU is running -- CPU_ReadMem(4 bytes @ 0xE000EDF0)
 -- CPU_WriteMem(4 bytes @ 0xE0002000) -- CPU_ReadMem(4 bytes @ 0xE000EDFC) -- CPU_ReadMem(4 bytes @ 0xE0001000) (0018ms, 0750ms total)
T7F3C 001:370 JLINK_Halt()  returns 0x00 (0000ms, 0750ms total)
T7F3C 001:370 JLINK_IsHalted()  returns TRUE (0000ms, 0750ms total)
T7F3C 001:370 JLINK_ReadMemU32(0xE000EDF0, 0x0001 Items, ...) -- CPU_ReadMem(4 bytes @ 0xE000EDF0) - Data: 03 00 03 00  returns 0x01 (0001ms, 0751ms total)
T7F3C 001:371 JLINK_WriteU32(0xE000EDF0, 0xA05F0003) -- CPU_WriteMem(4 bytes @ 0xE000EDF0)  returns 0x00 (0000ms, 0751ms total)
T7F3C 001:371 JLINK_WriteU32(0xE000EDFC, 0x01000000) -- CPU_WriteMem(4 bytes @ 0xE000EDFC)  returns 0x00 (0001ms, 0752ms total)
T7F3C 001:426 JLINK_GetHWStatus(...)  returns 0x00 (0001ms, 0753ms total)
T7F3C 001:458 JLINK_GetNumBPUnits(Type = 0xFFFFFF00)  returns 0x06 (0000ms, 0753ms total)
T7F3C 001:458 JLINK_GetNumBPUnits(Type = 0xF0)  returns 0x2000 (0000ms, 0753ms total)
T7F3C 001:458 JLINK_GetNumWPUnits()  returns 0x04 (0000ms, 0753ms total)
T7F3C 001:492 JLINK_GetSpeed()  returns 0xFA0 (0000ms, 0753ms total)
T7F3C 001:518 JLINK_ReadMemU32(0xE000E004, 0x0001 Items, ...) -- CPU_ReadMem(4 bytes @ 0xE000E004) - Data: 02 00 00 00  returns 0x01 (0001ms, 0754ms total)
T7F3C 001:519 JLINK_ReadMemU32(0xE000E004, 0x0001 Items, ...) -- CPU_ReadMem(4 bytes @ 0xE000E004) - Data: 02 00 00 00  returns 0x01 (0000ms, 0754ms total)
T7F3C 001:519 JLINK_WriteMem(0xE0001000, 0x001C Bytes, ...) - Data: 01 00 00 00 00 00 00 00 00 00 00 00 00 00 00 00 ... -- CPU_WriteMem(28 bytes @ 0xE0001000)  returns 0x1C (0001ms, 0755ms total)
T7F3C 001:520 JLINK_ReadMem (0xE0001000, 0x001C Bytes, ...) -- CPU_ReadMem(28 bytes @ 0xE0001000) - Data: 01 00 00 40 00 00 00 00 00 00 00 00 00 00 00 00 ...  returns 0x00 (0001ms, 0756ms total)
T7F3C 001:521 JLINK_Halt()  returns 0x00 (0000ms, 0756ms total)
T7F3C 001:521 JLINK_IsHalted()  returns TRUE (0000ms, 0756ms total)
T7F3C 001:529 JLINK_WriteMem(0x20000000, 0x0180 Bytes, ...) - Data: 00 BE 0A E0 0D 78 2D 06 68 40 08 24 40 00 00 D3 ... -- CPU_WriteMem(384 bytes @ 0x20000000)  returns 0x180 (0005ms, 0761ms total)
T7F3C 001:534 JLINK_WriteReg(R0, 0x08000000)  returns 0x00 (0000ms, 0761ms total)
T7F3C 001:534 JLINK_WriteReg(R1, 0x00B71B00)  returns 0x00 (0000ms, 0761ms total)
T7F3C 001:534 JLINK_WriteReg(R2, 0x00000001)  returns 0x00 (0000ms, 0761ms total)
T7F3C 001:534 JLINK_WriteReg(R3, 0x00000000)  returns 0x00 (0000ms, 0761ms total)
T7F3C 001:534 JLINK_WriteReg(R4, 0x00000000)  returns 0x00 (0000ms, 0761ms total)
T7F3C 001:534 JLINK_WriteReg(R5, 0x00000000)  returns 0x00 (0000ms, 0761ms total)
T7F3C 001:534 JLINK_WriteReg(R6, 0x00000000)  returns 0x00 (0000ms, 0761ms total)
T7F3C 001:534 JLINK_WriteReg(R7, 0x00000000)  returns 0x00 (0000ms, 0761ms total)
T7F3C 001:534 JLINK_WriteReg(R8, 0x00000000)  returns 0x00 (0000ms, 0761ms total)
T7F3C 001:534 JLINK_WriteReg(R9, 0x2000017C)  returns 0x00 (0000ms, 0761ms total)
T7F3C 001:534 JLINK_WriteReg(R10, 0x00000000)  returns 0x00 (0000ms, 0761ms total)
T7F3C 001:534 JLINK_WriteReg(R11, 0x00000000)  returns 0x00 (0001ms, 0762ms total)
T7F3C 001:535 JLINK_WriteReg(R12, 0x00000000)  returns 0x00 (0000ms, 0762ms total)
T7F3C 001:535 JLINK_WriteReg(R13 (SP), 0x20001000)  returns 0x00 (0000ms, 0762ms total)
T7F3C 001:535 JLINK_WriteReg(R14, 0x20000001)  returns 0x00 (0000ms, 0762ms total)
T7F3C 001:535 JLINK_WriteReg(R15 (PC), 0x20000054)  returns 0x00 (0000ms, 0762ms total)
T7F3C 001:535 JLINK_WriteReg(XPSR, 0x01000000)  returns 0x00 (0000ms, 0762ms total)
T7F3C 001:535 JLINK_WriteReg(MSP, 0x20001000)  returns 0x00 (0000ms, 0762ms total)
T7F3C 001:535 JLINK_WriteReg(PSP, 0x20001000)  returns 0x00 (0000ms, 0762ms total)
T7F3C 001:535 JLINK_WriteReg(CFBP, 0x00000000)  returns 0x00 (0000ms, 0762ms total)
T7F3C 001:535 JLINK_SetBPEx(Addr = 0x20000000, Type = 0xFFFFFFF2) -- CPU_ReadMem(2 bytes @ 0x20000000)  returns 0x00000001 (0000ms, 0762ms total)
T7F3C 001:535 JLINK_Go() -- CPU_WriteMem(2 bytes @ 0x20000000) -- CPU_WriteMem(4 bytes @ 0xE0002008) -- CPU_WriteMem(4 bytes @ 0xE000200C) -- CPU_WriteMem(4 bytes @ 0xE0002010) -- CPU_WriteMem(4 bytes @ 0xE0002014) -- CPU_WriteMem(4 bytes @ 0xE0002018) -- CPU_WriteMem(4 bytes @ 0xE000201C) -- CPU_WriteMem(4 bytes @ 0xE0001004) (0007ms, 0769ms total)
T7F3C 001:542 JLINK_IsHalted() -- CPU_ReadMem(2 bytes @ 0x20000000)  returns TRUE (0003ms, 0772ms total)
T7F3C 001:545 JLINK_ReadReg(R15 (PC))  returns 0x20000000 (0000ms, 0769ms total)
T7F3C 001:545 JLINK_ClrBPEx(BPHandle = 0x00000001)  returns 0x00 (0000ms, 0769ms total)
T7F3C 001:545 JLINK_ReadReg(R0)  returns 0x00000000 (0000ms, 0769ms total)
T7F3C 001:546 JLINK_WriteReg(R0, 0x08000000)  returns 0x00 (0000ms, 0769ms total)
T7F3C 001:546 JLINK_WriteReg(R1, 0x00004000)  returns 0x00 (0000ms, 0769ms total)
T7F3C 001:546 JLINK_WriteReg(R2, 0x000000FF)  returns 0x00 (0000ms, 0769ms total)
T7F3C 001:546 JLINK_WriteReg(R3, 0x00000000)  returns 0x00 (0000ms, 0769ms total)
T7F3C 001:546 JLINK_WriteReg(R4, 0x00000000)  returns 0x00 (0000ms, 0769ms total)
T7F3C 001:546 JLINK_WriteReg(R5, 0x00000000)  returns 0x00 (0000ms, 0769ms total)
T7F3C 001:546 JLINK_WriteReg(R6, 0x00000000)  returns 0x00 (0000ms, 0769ms total)
T7F3C 001:546 JLINK_WriteReg(R7, 0x00000000)  returns 0x00 (0000ms, 0769ms total)
T7F3C 001:546 JLINK_WriteReg(R8, 0x00000000)  returns 0x00 (0001ms, 0770ms total)
T7F3C 001:547 JLINK_WriteReg(R9, 0x2000017C)  returns 0x00 (0000ms, 0770ms total)
T7F3C 001:547 JLINK_WriteReg(R10, 0x00000000)  returns 0x00 (0000ms, 0770ms total)
T7F3C 001:547 JLINK_WriteReg(R11, 0x00000000)  returns 0x00 (0000ms, 0770ms total)
T7F3C 001:547 JLINK_WriteReg(R12, 0x00000000)  returns 0x00 (0000ms, 0770ms total)
T7F3C 001:547 JLINK_WriteReg(R13 (SP), 0x20001000)  returns 0x00 (0000ms, 0770ms total)
T7F3C 001:547 JLINK_WriteReg(R14, 0x20000001)  returns 0x00 (0000ms, 0770ms total)
T7F3C 001:547 JLINK_WriteReg(R15 (PC), 0x20000020)  returns 0x00 (0000ms, 0770ms total)
T7F3C 001:547 JLINK_WriteReg(XPSR, 0x01000000)  returns 0x00 (0000ms, 0770ms total)
T7F3C 001:547 JLINK_WriteReg(MSP, 0x20001000)  returns 0x00 (0000ms, 0770ms total)
T7F3C 001:547 JLINK_WriteReg(PSP, 0x20001000)  returns 0x00 (0000ms, 0770ms total)
T7F3C 001:547 JLINK_WriteReg(CFBP, 0x00000000)  returns 0x00 (0000ms, 0770ms total)
T7F3C 001:547 JLINK_SetBPEx(Addr = 0x20000000, Type = 0xFFFFFFF2)  returns 0x00000002 (0000ms, 0770ms total)
T7F3C 001:547 JLINK_Go() (0002ms, 0772ms total)
T7F3C 001:549 JLINK_IsHalted() -- CPU_ReadMem(2 bytes @ 0x20000000)  returns TRUE (0004ms, 0776ms total)
T7F3C 001:553 JLINK_ReadReg(R15 (PC))  returns 0x20000000 (0000ms, 0772ms total)
T7F3C 001:553 JLINK_ClrBPEx(BPHandle = 0x00000002)  returns 0x00 (0000ms, 0772ms total)
T7F3C 001:553 JLINK_ReadReg(R0)  returns 0x00000001 (0000ms, 0772ms total)
T7F3C 001:553 JLINK_WriteReg(R0, 0x08000000)  returns 0x00 (0000ms, 0772ms total)
T7F3C 001:553 JLINK_WriteReg(R1, 0x00004000)  returns 0x00 (0000ms, 0772ms total)
T7F3C 001:553 JLINK_WriteReg(R2, 0x000000FF)  returns 0x00 (0000ms, 0772ms total)
T7F3C 001:553 JLINK_WriteReg(R3, 0x00000000)  returns 0x00 (0000ms, 0772ms total)
T7F3C 001:553 JLINK_WriteReg(R4, 0x00000000)  returns 0x00 (0000ms, 0772ms total)
T7F3C 001:553 JLINK_WriteReg(R5, 0x00000000)  returns 0x00 (0000ms, 0772ms total)
T7F3C 001:553 JLINK_WriteReg(R6, 0x00000000)  returns 0x00 (0000ms, 0772ms total)
T7F3C 001:553 JLINK_WriteReg(R7, 0x00000000)  returns 0x00 (0000ms, 0772ms total)
T7F3C 001:553 JLINK_WriteReg(R8, 0x00000000)  returns 0x00 (0000ms, 0772ms total)
T7F3C 001:553 JLINK_WriteReg(R9, 0x2000017C)  returns 0x00 (0000ms, 0772ms total)
T7F3C 001:553 JLINK_WriteReg(R10, 0x00000000)  returns 0x00 (0000ms, 0772ms total)
T7F3C 001:553 JLINK_WriteReg(R11, 0x00000000)  returns 0x00 (0000ms, 0772ms total)
T7F3C 001:553 JLINK_WriteReg(R12, 0x00000000)  returns 0x00 (0000ms, 0772ms total)
T7F3C 001:553 JLINK_WriteReg(R13 (SP), 0x20001000)  returns 0x00 (0001ms, 0773ms total)
T7F3C 001:554 JLINK_WriteReg(R14, 0x20000001)  returns 0x00 (0000ms, 0773ms total)
T7F3C 001:554 JLINK_WriteReg(R15 (PC), 0x200000BC)  returns 0x00 (0000ms, 0773ms total)
T7F3C 001:554 JLINK_WriteReg(XPSR, 0x01000000)  returns 0x00 (0000ms, 0773ms total)
T7F3C 001:554 JLINK_WriteReg(MSP, 0x20001000)  returns 0x00 (0000ms, 0773ms total)
T7F3C 001:554 JLINK_WriteReg(PSP, 0x20001000)  returns 0x00 (0000ms, 0773ms total)
T7F3C 001:554 JLINK_WriteReg(CFBP, 0x00000000)  returns 0x00 (0000ms, 0773ms total)
T7F3C 001:554 JLINK_SetBPEx(Addr = 0x20000000, Type = 0xFFFFFFF2)  returns 0x00000003 (0000ms, 0773ms total)
T7F3C 001:554 JLINK_Go() (0001ms, 0774ms total)
T7F3C 001:555 JLINK_IsHalted()  returns FALSE (0001ms, 0775ms total)
T7F3C 001:945 JLINK_IsHalted() -- CPU_ReadMem(2 bytes @ 0x20000000)  returns TRUE (0003ms, 0777ms total)
T7F3C 001:948 JLINK_ReadReg(R15 (PC))  returns 0x20000000 (0000ms, 0774ms total)
T7F3C 001:948 JLINK_ClrBPEx(BPHandle = 0x00000003)  returns 0x00 (0001ms, 0775ms total)
T7F3C 001:949 JLINK_ReadReg(R0)  returns 0x00000000 (0000ms, 0775ms total)
T7F3C 001:950 JLINK_WriteReg(R0, 0x08004000)  returns 0x00 (0000ms, 0775ms total)
T7F3C 001:950 JLINK_WriteReg(R1, 0x00004000)  returns 0x00 (0000ms, 0775ms total)
T7F3C 001:950 JLINK_WriteReg(R2, 0x000000FF)  returns 0x00 (0000ms, 0775ms total)
T7F3C 001:950 JLINK_WriteReg(R3, 0x00000000)  returns 0x00 (0000ms, 0775ms total)
T7F3C 001:950 JLINK_WriteReg(R4, 0x00000000)  returns 0x00 (0000ms, 0775ms total)
T7F3C 001:950 JLINK_WriteReg(R5, 0x00000000)  returns 0x00 (0000ms, 0775ms total)
T7F3C 001:950 JLINK_WriteReg(R6, 0x00000000)  returns 0x00 (0000ms, 0775ms total)
T7F3C 001:950 JLINK_WriteReg(R7, 0x00000000)  returns 0x00 (0000ms, 0775ms total)
T7F3C 001:950 JLINK_WriteReg(R8, 0x00000000)  returns 0x00 (0000ms, 0775ms total)
T7F3C 001:951 JLINK_WriteReg(R9, 0x2000017C)  returns 0x00 (0000ms, 0776ms total)
T7F3C 001:951 JLINK_WriteReg(R10, 0x00000000)  returns 0x00 (0000ms, 0776ms total)
T7F3C 001:951 JLINK_WriteReg(R11, 0x00000000)  returns 0x00 (0000ms, 0776ms total)
T7F3C 001:951 JLINK_WriteReg(R12, 0x00000000)  returns 0x00 (0000ms, 0776ms total)
T7F3C 001:951 JLINK_WriteReg(R13 (SP), 0x20001000)  returns 0x00 (0000ms, 0776ms total)
T7F3C 001:951 JLINK_WriteReg(R14, 0x20000001)  returns 0x00 (0000ms, 0776ms total)
T7F3C 001:951 JLINK_WriteReg(R15 (PC), 0x20000020)  returns 0x00 (0000ms, 0776ms total)
T7F3C 001:951 JLINK_WriteReg(XPSR, 0x01000000)  returns 0x00 (0000ms, 0776ms total)
T7F3C 001:951 JLINK_WriteReg(MSP, 0x20001000)  returns 0x00 (0000ms, 0776ms total)
T7F3C 001:951 JLINK_WriteReg(PSP, 0x20001000)  returns 0x00 (0000ms, 0776ms total)
T7F3C 001:951 JLINK_WriteReg(CFBP, 0x00000000)  returns 0x00 (0000ms, 0776ms total)
T7F3C 001:951 JLINK_SetBPEx(Addr = 0x20000000, Type = 0xFFFFFFF2)  returns 0x00000004 (0000ms, 0776ms total)
T7F3C 001:951 JLINK_Go() (0002ms, 0778ms total)
T7F3C 001:953 JLINK_IsHalted() -- CPU_ReadMem(2 bytes @ 0x20000000)  returns TRUE (0003ms, 0781ms total)
T7F3C 001:956 JLINK_ReadReg(R15 (PC))  returns 0x20000000 (0000ms, 0778ms total)
T7F3C 001:956 JLINK_ClrBPEx(BPHandle = 0x00000004)  returns 0x00 (0001ms, 0779ms total)
T7F3C 001:957 JLINK_ReadReg(R0)  returns 0x00000001 (0000ms, 0779ms total)
T7F3C 001:957 JLINK_WriteReg(R0, 0x08004000)  returns 0x00 (0000ms, 0779ms total)
T7F3C 001:957 JLINK_WriteReg(R1, 0x00004000)  returns 0x00 (0000ms, 0779ms total)
T7F3C 001:957 JLINK_WriteReg(R2, 0x000000FF)  returns 0x00 (0000ms, 0779ms total)
T7F3C 001:957 JLINK_WriteReg(R3, 0x00000000)  returns 0x00 (0000ms, 0779ms total)
T7F3C 001:957 JLINK_WriteReg(R4, 0x00000000)  returns 0x00 (0000ms, 0779ms total)
T7F3C 001:957 JLINK_WriteReg(R5, 0x00000000)  returns 0x00 (0000ms, 0779ms total)
T7F3C 001:957 JLINK_WriteReg(R6, 0x00000000)  returns 0x00 (0000ms, 0779ms total)
T7F3C 001:957 JLINK_WriteReg(R7, 0x00000000)  returns 0x00 (0000ms, 0779ms total)
T7F3C 001:957 JLINK_WriteReg(R8, 0x00000000)  returns 0x00 (0000ms, 0779ms total)
T7F3C 001:957 JLINK_WriteReg(R9, 0x2000017C)  returns 0x00 (0000ms, 0779ms total)
T7F3C 001:957 JLINK_WriteReg(R10, 0x00000000)  returns 0x00 (0000ms, 0779ms total)
T7F3C 001:957 JLINK_WriteReg(R11, 0x00000000)  returns 0x00 (0000ms, 0779ms total)
T7F3C 001:957 JLINK_WriteReg(R12, 0x00000000)  returns 0x00 (0000ms, 0779ms total)
T7F3C 001:957 JLINK_WriteReg(R13 (SP), 0x20001000)  returns 0x00 (0000ms, 0779ms total)
T7F3C 001:957 JLINK_WriteReg(R14, 0x20000001)  returns 0x00 (0000ms, 0779ms total)
T7F3C 001:957 JLINK_WriteReg(R15 (PC), 0x200000BC)  returns 0x00 (0000ms, 0779ms total)
T7F3C 001:957 JLINK_WriteReg(XPSR, 0x01000000)  returns 0x00 (0000ms, 0779ms total)
T7F3C 001:957 JLINK_WriteReg(MSP, 0x20001000)  returns 0x00 (0000ms, 0779ms total)
T7F3C 001:957 JLINK_WriteReg(PSP, 0x20001000)  returns 0x00 (0000ms, 0779ms total)
T7F3C 001:957 JLINK_WriteReg(CFBP, 0x00000000)  returns 0x00 (0000ms, 0779ms total)
T7F3C 001:957 JLINK_SetBPEx(Addr = 0x20000000, Type = 0xFFFFFFF2)  returns 0x00000005 (0000ms, 0779ms total)
T7F3C 001:957 JLINK_Go() (0002ms, 0781ms total)
T7F3C 001:959 JLINK_IsHalted()  returns FALSE (0000ms, 0781ms total)
T7F3C 002:209 JLINK_IsHalted()  returns FALSE (0000ms, 0781ms total)
T7F3C 002:451 JLINK_IsHalted() -- CPU_ReadMem(2 bytes @ 0x20000000)  returns TRUE (0004ms, 0785ms total)
T7F3C 002:455 JLINK_ReadReg(R15 (PC))  returns 0x20000000 (0000ms, 0781ms total)
T7F3C 002:455 JLINK_ClrBPEx(BPHandle = 0x00000005)  returns 0x00 (0000ms, 0781ms total)
T7F3C 002:455 JLINK_ReadReg(R0)  returns 0x00000000 (0000ms, 0781ms total)
T7F3C 002:456 JLINK_WriteReg(R0, 0x00000001)  returns 0x00 (0000ms, 0781ms total)
T7F3C 002:456 JLINK_WriteReg(R1, 0x00004000)  returns 0x00 (0000ms, 0781ms total)
T7F3C 002:456 JLINK_WriteReg(R2, 0x000000FF)  returns 0x00 (0000ms, 0781ms total)
T7F3C 002:456 JLINK_WriteReg(R3, 0x00000000)  returns 0x00 (0000ms, 0781ms total)
T7F3C 002:456 JLINK_WriteReg(R4, 0x00000000)  returns 0x00 (0000ms, 0781ms total)
T7F3C 002:456 JLINK_WriteReg(R5, 0x00000000)  returns 0x00 (0000ms, 0781ms total)
T7F3C 002:456 JLINK_WriteReg(R6, 0x00000000)  returns 0x00 (0000ms, 0781ms total)
T7F3C 002:456 JLINK_WriteReg(R7, 0x00000000)  returns 0x00 (0000ms, 0781ms total)
T7F3C 002:456 JLINK_WriteReg(R8, 0x00000000)  returns 0x00 (0000ms, 0781ms total)
T7F3C 002:456 JLINK_WriteReg(R9, 0x2000017C)  returns 0x00 (0000ms, 0781ms total)
T7F3C 002:456 JLINK_WriteReg(R10, 0x00000000)  returns 0x00 (0000ms, 0781ms total)
T7F3C 002:456 JLINK_WriteReg(R11, 0x00000000)  returns 0x00 (0000ms, 0781ms total)
T7F3C 002:456 JLINK_WriteReg(R12, 0x00000000)  returns 0x00 (0000ms, 0781ms total)
T7F3C 002:456 JLINK_WriteReg(R13 (SP), 0x20001000)  returns 0x00 (0000ms, 0781ms total)
T7F3C 002:456 JLINK_WriteReg(R14, 0x20000001)  returns 0x00 (0001ms, 0782ms total)
T7F3C 002:457 JLINK_WriteReg(R15 (PC), 0x20000082)  returns 0x00 (0000ms, 0782ms total)
T7F3C 002:457 JLINK_WriteReg(XPSR, 0x01000000)  returns 0x00 (0000ms, 0782ms total)
T7F3C 002:457 JLINK_WriteReg(MSP, 0x20001000)  returns 0x00 (0000ms, 0782ms total)
T7F3C 002:457 JLINK_WriteReg(PSP, 0x20001000)  returns 0x00 (0000ms, 0782ms total)
T7F3C 002:457 JLINK_WriteReg(CFBP, 0x00000000)  returns 0x00 (0000ms, 0782ms total)
T7F3C 002:457 JLINK_SetBPEx(Addr = 0x20000000, Type = 0xFFFFFFF2)  returns 0x00000006 (0000ms, 0782ms total)
T7F3C 002:457 JLINK_Go() (0002ms, 0784ms total)
T7F3C 002:459 JLINK_IsHalted() -- CPU_ReadMem(2 bytes @ 0x20000000)  returns TRUE (0004ms, 0788ms total)
T7F3C 002:463 JLINK_ReadReg(R15 (PC))  returns 0x20000000 (0000ms, 0784ms total)
T7F3C 002:463 JLINK_ClrBPEx(BPHandle = 0x00000006)  returns 0x00 (0000ms, 0784ms total)
T7F3C 002:463 JLINK_ReadReg(R0)  returns 0x00000000 (0000ms, 0784ms total)
T7F3C 002:539 JLINK_WriteMem(0x20000000, 0x0180 Bytes, ...) - Data: 00 BE 0A E0 0D 78 2D 06 68 40 08 24 40 00 00 D3 ... -- CPU_WriteMem(384 bytes @ 0x20000000)  returns 0x180 (0005ms, 0789ms total)
T7F3C 002:544 JLINK_WriteReg(R0, 0x08000000)  returns 0x00 (0000ms, 0789ms total)
T7F3C 002:544 JLINK_WriteReg(R1, 0x00B71B00)  returns 0x00 (0000ms, 0789ms total)
T7F3C 002:544 JLINK_WriteReg(R2, 0x00000002)  returns 0x00 (0000ms, 0789ms total)
T7F3C 002:544 JLINK_WriteReg(R3, 0x00000000)  returns 0x00 (0000ms, 0789ms total)
T7F3C 002:544 JLINK_WriteReg(R4, 0x00000000)  returns 0x00 (0000ms, 0789ms total)
T7F3C 002:544 JLINK_WriteReg(R5, 0x00000000)  returns 0x00 (0000ms, 0789ms total)
T7F3C 002:544 JLINK_WriteReg(R6, 0x00000000)  returns 0x00 (0000ms, 0789ms total)
T7F3C 002:544 JLINK_WriteReg(R7, 0x00000000)  returns 0x00 (0001ms, 0790ms total)
T7F3C 002:545 JLINK_WriteReg(R8, 0x00000000)  returns 0x00 (0000ms, 0790ms total)
T7F3C 002:545 JLINK_WriteReg(R9, 0x2000017C)  returns 0x00 (0000ms, 0790ms total)
T7F3C 002:545 JLINK_WriteReg(R10, 0x00000000)  returns 0x00 (0000ms, 0790ms total)
T7F3C 002:545 JLINK_WriteReg(R11, 0x00000000)  returns 0x00 (0000ms, 0790ms total)
T7F3C 002:545 JLINK_WriteReg(R12, 0x00000000)  returns 0x00 (0000ms, 0790ms total)
T7F3C 002:545 JLINK_WriteReg(R13 (SP), 0x20001000)  returns 0x00 (0000ms, 0790ms total)
T7F3C 002:545 JLINK_WriteReg(R14, 0x20000001)  returns 0x00 (0000ms, 0790ms total)
T7F3C 002:545 JLINK_WriteReg(R15 (PC), 0x20000054)  returns 0x00 (0000ms, 0790ms total)
T7F3C 002:545 JLINK_WriteReg(XPSR, 0x01000000)  returns 0x00 (0000ms, 0790ms total)
T7F3C 002:545 JLINK_WriteReg(MSP, 0x20001000)  returns 0x00 (0000ms, 0790ms total)
T7F3C 002:545 JLINK_WriteReg(PSP, 0x20001000)  returns 0x00 (0000ms, 0790ms total)
T7F3C 002:545 JLINK_WriteReg(CFBP, 0x00000000)  returns 0x00 (0000ms, 0790ms total)
T7F3C 002:545 JLINK_SetBPEx(Addr = 0x20000000, Type = 0xFFFFFFF2) -- CPU_ReadMem(2 bytes @ 0x20000000)  returns 0x00000007 (0001ms, 0791ms total)
T7F3C 002:546 JLINK_Go() -- CPU_WriteMem(2 bytes @ 0x20000000) (0002ms, 0793ms total)
T7F3C 002:548 JLINK_IsHalted() -- CPU_ReadMem(2 bytes @ 0x20000000)  returns TRUE (0004ms, 0797ms total)
T7F3C 002:552 JLINK_ReadReg(R15 (PC))  returns 0x20000000 (0000ms, 0793ms total)
T7F3C 002:552 JLINK_ClrBPEx(BPHandle = 0x00000007)  returns 0x00 (0001ms, 0794ms total)
T7F3C 002:553 JLINK_ReadReg(R0)  returns 0x00000000 (0000ms, 0794ms total)
T7F3C 002:553 JLINK_WriteMem(0x20000180, 0x0400 Bytes, ...) - Data: 28 11 00 20 69 02 00 08 3B 43 00 08 95 2C 00 08 ... -- CPU_WriteMem(1024 bytes @ 0x20000180)  returns 0x400 (0013ms, 0807ms total)
T7F3C 002:566 JLINK_WriteReg(R0, 0x08000000)  returns 0x00 (0000ms, 0807ms total)
T7F3C 002:566 JLINK_WriteReg(R1, 0x00000400)  returns 0x00 (0000ms, 0807ms total)
T7F3C 002:566 JLINK_WriteReg(R2, 0x20000180)  returns 0x00 (0000ms, 0807ms total)
T7F3C 002:566 JLINK_WriteReg(R3, 0x00000000)  returns 0x00 (0000ms, 0807ms total)
T7F3C 002:566 JLINK_WriteReg(R4, 0x00000000)  returns 0x00 (0000ms, 0807ms total)
T7F3C 002:566 JLINK_WriteReg(R5, 0x00000000)  returns 0x00 (0000ms, 0807ms total)
T7F3C 002:566 JLINK_WriteReg(R6, 0x00000000)  returns 0x00 (0000ms, 0807ms total)
T7F3C 002:566 JLINK_WriteReg(R7, 0x00000000)  returns 0x00 (0000ms, 0807ms total)
T7F3C 002:566 JLINK_WriteReg(R8, 0x00000000)  returns 0x00 (0000ms, 0807ms total)
T7F3C 002:566 JLINK_WriteReg(R9, 0x2000017C)  returns 0x00 (0000ms, 0807ms total)
T7F3C 002:566 JLINK_WriteReg(R10, 0x00000000)  returns 0x00 (0000ms, 0807ms total)
T7F3C 002:566 JLINK_WriteReg(R11, 0x00000000)  returns 0x00 (0000ms, 0807ms total)
T7F3C 002:566 JLINK_WriteReg(R12, 0x00000000)  returns 0x00 (0000ms, 0807ms total)
T7F3C 002:566 JLINK_WriteReg(R13 (SP), 0x20001000)  returns 0x00 (0000ms, 0807ms total)
T7F3C 002:566 JLINK_WriteReg(R14, 0x20000001)  returns 0x00 (0000ms, 0807ms total)
T7F3C 002:566 JLINK_WriteReg(R15 (PC), 0x20000108)  returns 0x00 (0000ms, 0807ms total)
T7F3C 002:566 JLINK_WriteReg(XPSR, 0x01000000)  returns 0x00 (0000ms, 0807ms total)
T7F3C 002:566 JLINK_WriteReg(MSP, 0x20001000)  returns 0x00 (0000ms, 0807ms total)
T7F3C 002:566 JLINK_WriteReg(PSP, 0x20001000)  returns 0x00 (0000ms, 0807ms total)
T7F3C 002:566 JLINK_WriteReg(CFBP, 0x00000000)  returns 0x00 (0001ms, 0808ms total)
T7F3C 002:567 JLINK_SetBPEx(Addr = 0x20000000, Type = 0xFFFFFFF2)  returns 0x00000008 (0000ms, 0808ms total)
T7F3C 002:567 JLINK_Go() (0001ms, 0809ms total)
T7F3C 002:568 JLINK_IsHalted()  returns FALSE (0001ms, 0810ms total)
T7F3C 002:870 JLINK_IsHalted() -- CPU_ReadMem(2 bytes @ 0x20000000)  returns TRUE (0004ms, 0813ms total)
T7F3C 002:874 JLINK_ReadReg(R15 (PC))  returns 0x20000000 (0000ms, 0809ms total)
T7F3C 002:874 JLINK_ClrBPEx(BPHandle = 0x00000008)  returns 0x00 (0000ms, 0809ms total)
T7F3C 002:874 JLINK_ReadReg(R0)  returns 0x00000000 (0000ms, 0809ms total)
T7F3C 002:875 JLINK_WriteMem(0x20000180, 0x0400 Bytes, ...) - Data: 05 00 69 46 53 46 20 F0 07 00 85 46 18 B0 20 B5 ... -- CPU_WriteMem(1024 bytes @ 0x20000180)  returns 0x400 (0013ms, 0822ms total)
T7F3C 002:888 JLINK_WriteReg(R0, 0x08000400)  returns 0x00 (0000ms, 0822ms total)
T7F3C 002:888 JLINK_WriteReg(R1, 0x00000400)  returns 0x00 (0000ms, 0822ms total)
T7F3C 002:888 JLINK_WriteReg(R2, 0x20000180)  returns 0x00 (0000ms, 0822ms total)
T7F3C 002:888 JLINK_WriteReg(R3, 0x00000000)  returns 0x00 (0000ms, 0822ms total)
T7F3C 002:888 JLINK_WriteReg(R4, 0x00000000)  returns 0x00 (0000ms, 0822ms total)
T7F3C 002:888 JLINK_WriteReg(R5, 0x00000000)  returns 0x00 (0000ms, 0822ms total)
T7F3C 002:888 JLINK_WriteReg(R6, 0x00000000)  returns 0x00 (0000ms, 0822ms total)
T7F3C 002:888 JLINK_WriteReg(R7, 0x00000000)  returns 0x00 (0000ms, 0822ms total)
T7F3C 002:888 JLINK_WriteReg(R8, 0x00000000)  returns 0x00 (0000ms, 0822ms total)
T7F3C 002:888 JLINK_WriteReg(R9, 0x2000017C)  returns 0x00 (0000ms, 0822ms total)
T7F3C 002:888 JLINK_WriteReg(R10, 0x00000000)  returns 0x00 (0000ms, 0822ms total)
T7F3C 002:888 JLINK_WriteReg(R11, 0x00000000)  returns 0x00 (0000ms, 0822ms total)
T7F3C 002:888 JLINK_WriteReg(R12, 0x00000000)  returns 0x00 (0000ms, 0822ms total)
T7F3C 002:888 JLINK_WriteReg(R13 (SP), 0x20001000)  returns 0x00 (0001ms, 0823ms total)
T7F3C 002:889 JLINK_WriteReg(R14, 0x20000001)  returns 0x00 (0000ms, 0823ms total)
T7F3C 002:889 JLINK_WriteReg(R15 (PC), 0x20000108)  returns 0x00 (0000ms, 0823ms total)
T7F3C 002:889 JLINK_WriteReg(XPSR, 0x01000000)  returns 0x00 (0000ms, 0823ms total)
T7F3C 002:889 JLINK_WriteReg(MSP, 0x20001000)  returns 0x00 (0000ms, 0823ms total)
T7F3C 002:889 JLINK_WriteReg(PSP, 0x20001000)  returns 0x00 (0000ms, 0823ms total)
T7F3C 002:889 JLINK_WriteReg(CFBP, 0x00000000)  returns 0x00 (0000ms, 0823ms total)
T7F3C 002:889 JLINK_SetBPEx(Addr = 0x20000000, Type = 0xFFFFFFF2)  returns 0x00000009 (0000ms, 0823ms total)
T7F3C 002:889 JLINK_Go() (0002ms, 0825ms total)
T7F3C 002:891 JLINK_IsHalted()  returns FALSE (0000ms, 0825ms total)
T7F3C 003:145 JLINK_IsHalted() -- CPU_ReadMem(2 bytes @ 0x20000000)  returns TRUE (0004ms, 0829ms total)
T7F3C 003:149 JLINK_ReadReg(R15 (PC))  returns 0x20000000 (0000ms, 0825ms total)
T7F3C 003:149 JLINK_ClrBPEx(BPHandle = 0x00000009)  returns 0x00 (0000ms, 0825ms total)
T7F3C 003:149 JLINK_ReadReg(R0)  returns 0x00000000 (0000ms, 0825ms total)
T7F3C 003:151 JLINK_WriteMem(0x20000180, 0x0400 Bytes, ...) - Data: 08 80 01 20 04 F0 AE FF 01 28 03 D1 04 F0 52 FF ... -- CPU_WriteMem(1024 bytes @ 0x20000180)  returns 0x400 (0012ms, 0837ms total)
T7F3C 003:163 JLINK_WriteReg(R0, 0x08000800)  returns 0x00 (0000ms, 0837ms total)
T7F3C 003:163 JLINK_WriteReg(R1, 0x00000400)  returns 0x00 (0000ms, 0837ms total)
T7F3C 003:163 JLINK_WriteReg(R2, 0x20000180)  returns 0x00 (0000ms, 0837ms total)
T7F3C 003:163 JLINK_WriteReg(R3, 0x00000000)  returns 0x00 (0000ms, 0837ms total)
T7F3C 003:163 JLINK_WriteReg(R4, 0x00000000)  returns 0x00 (0000ms, 0837ms total)
T7F3C 003:163 JLINK_WriteReg(R5, 0x00000000)  returns 0x00 (0000ms, 0837ms total)
T7F3C 003:164 JLINK_WriteReg(R6, 0x00000000)  returns 0x00 (0000ms, 0837ms total)
T7F3C 003:164 JLINK_WriteReg(R7, 0x00000000)  returns 0x00 (0000ms, 0837ms total)
T7F3C 003:164 JLINK_WriteReg(R8, 0x00000000)  returns 0x00 (0000ms, 0837ms total)
T7F3C 003:164 JLINK_WriteReg(R9, 0x2000017C)  returns 0x00 (0000ms, 0837ms total)
T7F3C 003:164 JLINK_WriteReg(R10, 0x00000000)  returns 0x00 (0000ms, 0837ms total)
T7F3C 003:164 JLINK_WriteReg(R11, 0x00000000)  returns 0x00 (0000ms, 0837ms total)
T7F3C 003:164 JLINK_WriteReg(R12, 0x00000000)  returns 0x00 (0000ms, 0837ms total)
T7F3C 003:164 JLINK_WriteReg(R13 (SP), 0x20001000)  returns 0x00 (0000ms, 0837ms total)
T7F3C 003:164 JLINK_WriteReg(R14, 0x20000001)  returns 0x00 (0000ms, 0837ms total)
T7F3C 003:164 JLINK_WriteReg(R15 (PC), 0x20000108)  returns 0x00 (0000ms, 0837ms total)
T7F3C 003:164 JLINK_WriteReg(XPSR, 0x01000000)  returns 0x00 (0000ms, 0837ms total)
T7F3C 003:164 JLINK_WriteReg(MSP, 0x20001000)  returns 0x00 (0000ms, 0837ms total)
T7F3C 003:164 JLINK_WriteReg(PSP, 0x20001000)  returns 0x00 (0000ms, 0837ms total)
T7F3C 003:164 JLINK_WriteReg(CFBP, 0x00000000)  returns 0x00 (0000ms, 0837ms total)
T7F3C 003:164 JLINK_SetBPEx(Addr = 0x20000000, Type = 0xFFFFFFF2)  returns 0x0000000A (0000ms, 0837ms total)
T7F3C 003:164 JLINK_Go() (0002ms, 0839ms total)
T7F3C 003:166 JLINK_IsHalted()  returns FALSE (0001ms, 0840ms total)
T7F3C 003:414 JLINK_IsHalted() -- CPU_ReadMem(2 bytes @ 0x20000000)  returns TRUE (0003ms, 0842ms total)
T7F3C 003:417 JLINK_ReadReg(R15 (PC))  returns 0x20000000 (0001ms, 0840ms total)
T7F3C 003:418 JLINK_ClrBPEx(BPHandle = 0x0000000A)  returns 0x00 (0000ms, 0840ms total)
T7F3C 003:418 JLINK_ReadReg(R0)  returns 0x00000000 (0000ms, 0840ms total)
T7F3C 003:419 JLINK_WriteMem(0x20000180, 0x0400 Bytes, ...) - Data: 04 E0 65 48 90 ED 00 0A B1 EE 40 0A DF ED 66 0A ... -- CPU_WriteMem(1024 bytes @ 0x20000180)  returns 0x400 (0012ms, 0852ms total)
T7F3C 003:431 JLINK_WriteReg(R0, 0x08000C00)  returns 0x00 (0000ms, 0852ms total)
T7F3C 003:431 JLINK_WriteReg(R1, 0x00000400)  returns 0x00 (0000ms, 0852ms total)
T7F3C 003:431 JLINK_WriteReg(R2, 0x20000180)  returns 0x00 (0000ms, 0852ms total)
T7F3C 003:431 JLINK_WriteReg(R3, 0x00000000)  returns 0x00 (0000ms, 0852ms total)
T7F3C 003:431 JLINK_WriteReg(R4, 0x00000000)  returns 0x00 (0000ms, 0852ms total)
T7F3C 003:431 JLINK_WriteReg(R5, 0x00000000)  returns 0x00 (0000ms, 0852ms total)
T7F3C 003:431 JLINK_WriteReg(R6, 0x00000000)  returns 0x00 (0000ms, 0852ms total)
T7F3C 003:431 JLINK_WriteReg(R7, 0x00000000)  returns 0x00 (0000ms, 0852ms total)
T7F3C 003:431 JLINK_WriteReg(R8, 0x00000000)  returns 0x00 (0000ms, 0852ms total)
T7F3C 003:431 JLINK_WriteReg(R9, 0x2000017C)  returns 0x00 (0000ms, 0852ms total)
T7F3C 003:431 JLINK_WriteReg(R10, 0x00000000)  returns 0x00 (0000ms, 0852ms total)
T7F3C 003:431 JLINK_WriteReg(R11, 0x00000000)  returns 0x00 (0001ms, 0853ms total)
T7F3C 003:432 JLINK_WriteReg(R12, 0x00000000)  returns 0x00 (0000ms, 0853ms total)
T7F3C 003:432 JLINK_WriteReg(R13 (SP), 0x20001000)  returns 0x00 (0000ms, 0853ms total)
T7F3C 003:432 JLINK_WriteReg(R14, 0x20000001)  returns 0x00 (0000ms, 0853ms total)
T7F3C 003:432 JLINK_WriteReg(R15 (PC), 0x20000108)  returns 0x00 (0000ms, 0853ms total)
T7F3C 003:432 JLINK_WriteReg(XPSR, 0x01000000)  returns 0x00 (0000ms, 0853ms total)
T7F3C 003:432 JLINK_WriteReg(MSP, 0x20001000)  returns 0x00 (0000ms, 0853ms total)
T7F3C 003:432 JLINK_WriteReg(PSP, 0x20001000)  returns 0x00 (0000ms, 0853ms total)
T7F3C 003:432 JLINK_WriteReg(CFBP, 0x00000000)  returns 0x00 (0000ms, 0853ms total)
T7F3C 003:432 JLINK_SetBPEx(Addr = 0x20000000, Type = 0xFFFFFFF2)  returns 0x0000000B (0000ms, 0853ms total)
T7F3C 003:432 JLINK_Go() (0002ms, 0855ms total)
T7F3C 003:434 JLINK_IsHalted()  returns FALSE (0001ms, 0856ms total)
T7F3C 003:702 JLINK_IsHalted() -- CPU_ReadMem(2 bytes @ 0x20000000)  returns TRUE (0004ms, 0859ms total)
T7F3C 003:706 JLINK_ReadReg(R15 (PC))  returns 0x20000000 (0000ms, 0855ms total)
T7F3C 003:706 JLINK_ClrBPEx(BPHandle = 0x0000000B)  returns 0x00 (0000ms, 0855ms total)
T7F3C 003:706 JLINK_ReadReg(R0)  returns 0x00000000 (0000ms, 0855ms total)
T7F3C 003:707 JLINK_WriteMem(0x20000180, 0x0400 Bytes, ...) - Data: 88 00 06 F0 32 FB 9F ED 54 0B 53 EC 10 2B 06 F0 ... -- CPU_WriteMem(1024 bytes @ 0x20000180)  returns 0x400 (0012ms, 0867ms total)
T7F3C 003:719 JLINK_WriteReg(R0, 0x08001000)  returns 0x00 (0000ms, 0867ms total)
T7F3C 003:719 JLINK_WriteReg(R1, 0x00000400)  returns 0x00 (0000ms, 0867ms total)
T7F3C 003:719 JLINK_WriteReg(R2, 0x20000180)  returns 0x00 (0000ms, 0867ms total)
T7F3C 003:720 JLINK_WriteReg(R3, 0x00000000)  returns 0x00 (0000ms, 0868ms total)
T7F3C 003:720 JLINK_WriteReg(R4, 0x00000000)  returns 0x00 (0000ms, 0868ms total)
T7F3C 003:720 JLINK_WriteReg(R5, 0x00000000)  returns 0x00 (0000ms, 0868ms total)
T7F3C 003:720 JLINK_WriteReg(R6, 0x00000000)  returns 0x00 (0000ms, 0868ms total)
T7F3C 003:720 JLINK_WriteReg(R7, 0x00000000)  returns 0x00 (0000ms, 0868ms total)
T7F3C 003:720 JLINK_WriteReg(R8, 0x00000000)  returns 0x00 (0000ms, 0868ms total)
T7F3C 003:720 JLINK_WriteReg(R9, 0x2000017C)  returns 0x00 (0000ms, 0868ms total)
T7F3C 003:720 JLINK_WriteReg(R10, 0x00000000)  returns 0x00 (0000ms, 0868ms total)
T7F3C 003:720 JLINK_WriteReg(R11, 0x00000000)  returns 0x00 (0000ms, 0868ms total)
T7F3C 003:720 JLINK_WriteReg(R12, 0x00000000)  returns 0x00 (0000ms, 0868ms total)
T7F3C 003:720 JLINK_WriteReg(R13 (SP), 0x20001000)  returns 0x00 (0000ms, 0868ms total)
T7F3C 003:720 JLINK_WriteReg(R14, 0x20000001)  returns 0x00 (0000ms, 0868ms total)
T7F3C 003:720 JLINK_WriteReg(R15 (PC), 0x20000108)  returns 0x00 (0000ms, 0868ms total)
T7F3C 003:720 JLINK_WriteReg(XPSR, 0x01000000)  returns 0x00 (0000ms, 0868ms total)
T7F3C 003:720 JLINK_WriteReg(MSP, 0x20001000)  returns 0x00 (0000ms, 0868ms total)
T7F3C 003:720 JLINK_WriteReg(PSP, 0x20001000)  returns 0x00 (0000ms, 0868ms total)
T7F3C 003:720 JLINK_WriteReg(CFBP, 0x00000000)  returns 0x00 (0001ms, 0869ms total)
T7F3C 003:721 JLINK_SetBPEx(Addr = 0x20000000, Type = 0xFFFFFFF2)  returns 0x0000000C (0000ms, 0869ms total)
T7F3C 003:721 JLINK_Go() (0001ms, 0870ms total)
T7F3C 003:723 JLINK_IsHalted()  returns FALSE (0000ms, 0870ms total)
T7F3C 003:996 JLINK_IsHalted() -- CPU_ReadMem(2 bytes @ 0x20000000)  returns TRUE (0004ms, 0874ms total)
T7F3C 004:000 JLINK_ReadReg(R15 (PC))  returns 0x20000000 (0000ms, 0870ms total)
T7F3C 004:000 JLINK_ClrBPEx(BPHandle = 0x0000000C)  returns 0x00 (0000ms, 0870ms total)
T7F3C 004:000 JLINK_ReadReg(R0)  returns 0x00000000 (0000ms, 0870ms total)
T7F3C 004:001 JLINK_WriteMem(0x20000180, 0x0400 Bytes, ...) - Data: 8D F8 08 00 8D F8 09 00 08 20 8D F8 0A 00 20 0A ... -- CPU_WriteMem(1024 bytes @ 0x20000180)  returns 0x400 (0013ms, 0883ms total)
T7F3C 004:014 JLINK_WriteReg(R0, 0x08001400)  returns 0x00 (0000ms, 0883ms total)
T7F3C 004:014 JLINK_WriteReg(R1, 0x00000400)  returns 0x00 (0000ms, 0883ms total)
T7F3C 004:014 JLINK_WriteReg(R2, 0x20000180)  returns 0x00 (0000ms, 0883ms total)
T7F3C 004:014 JLINK_WriteReg(R3, 0x00000000)  returns 0x00 (0000ms, 0883ms total)
T7F3C 004:014 JLINK_WriteReg(R4, 0x00000000)  returns 0x00 (0000ms, 0883ms total)
T7F3C 004:014 JLINK_WriteReg(R5, 0x00000000)  returns 0x00 (0000ms, 0883ms total)
T7F3C 004:014 JLINK_WriteReg(R6, 0x00000000)  returns 0x00 (0000ms, 0883ms total)
T7F3C 004:014 JLINK_WriteReg(R7, 0x00000000)  returns 0x00 (0000ms, 0883ms total)
T7F3C 004:014 JLINK_WriteReg(R8, 0x00000000)  returns 0x00 (0000ms, 0883ms total)
T7F3C 004:014 JLINK_WriteReg(R9, 0x2000017C)  returns 0x00 (0000ms, 0883ms total)
T7F3C 004:014 JLINK_WriteReg(R10, 0x00000000)  returns 0x00 (0000ms, 0883ms total)
T7F3C 004:014 JLINK_WriteReg(R11, 0x00000000)  returns 0x00 (0000ms, 0883ms total)
T7F3C 004:014 JLINK_WriteReg(R12, 0x00000000)  returns 0x00 (0000ms, 0883ms total)
T7F3C 004:014 JLINK_WriteReg(R13 (SP), 0x20001000)  returns 0x00 (0001ms, 0884ms total)
T7F3C 004:015 JLINK_WriteReg(R14, 0x20000001)  returns 0x00 (0000ms, 0884ms total)
T7F3C 004:015 JLINK_WriteReg(R15 (PC), 0x20000108)  returns 0x00 (0000ms, 0884ms total)
T7F3C 004:015 JLINK_WriteReg(XPSR, 0x01000000)  returns 0x00 (0000ms, 0884ms total)
T7F3C 004:015 JLINK_WriteReg(MSP, 0x20001000)  returns 0x00 (0000ms, 0884ms total)
T7F3C 004:015 JLINK_WriteReg(PSP, 0x20001000)  returns 0x00 (0000ms, 0884ms total)
T7F3C 004:015 JLINK_WriteReg(CFBP, 0x00000000)  returns 0x00 (0000ms, 0884ms total)
T7F3C 004:015 JLINK_SetBPEx(Addr = 0x20000000, Type = 0xFFFFFFF2)  returns 0x0000000D (0000ms, 0884ms total)
T7F3C 004:015 JLINK_Go() (0002ms, 0886ms total)
T7F3C 004:017 JLINK_IsHalted()  returns FALSE (0000ms, 0886ms total)
T7F3C 004:261 JLINK_IsHalted() -- CPU_ReadMem(2 bytes @ 0x20000000)  returns TRUE (0003ms, 0889ms total)
T7F3C 004:264 JLINK_ReadReg(R15 (PC))  returns 0x20000000 (0000ms, 0886ms total)
T7F3C 004:264 JLINK_ClrBPEx(BPHandle = 0x0000000D)  returns 0x00 (0000ms, 0886ms total)
T7F3C 004:265 JLINK_ReadReg(R0)  returns 0x00000000 (0000ms, 0887ms total)
T7F3C 004:267 JLINK_WriteMem(0x20000180, 0x0400 Bytes, ...) - Data: 27 4A 0C 32 12 68 0A 43 25 4B 0C 33 1A 60 42 88 ... -- CPU_WriteMem(1024 bytes @ 0x20000180)  returns 0x400 (0012ms, 0899ms total)
T7F3C 004:279 JLINK_WriteReg(R0, 0x08001800)  returns 0x00 (0000ms, 0899ms total)
T7F3C 004:279 JLINK_WriteReg(R1, 0x00000400)  returns 0x00 (0000ms, 0899ms total)
T7F3C 004:279 JLINK_WriteReg(R2, 0x20000180)  returns 0x00 (0000ms, 0899ms total)
T7F3C 004:279 JLINK_WriteReg(R3, 0x00000000)  returns 0x00 (0000ms, 0899ms total)
T7F3C 004:279 JLINK_WriteReg(R4, 0x00000000)  returns 0x00 (0001ms, 0900ms total)
T7F3C 004:280 JLINK_WriteReg(R5, 0x00000000)  returns 0x00 (0000ms, 0900ms total)
T7F3C 004:280 JLINK_WriteReg(R6, 0x00000000)  returns 0x00 (0000ms, 0900ms total)
T7F3C 004:280 JLINK_WriteReg(R7, 0x00000000)  returns 0x00 (0000ms, 0900ms total)
T7F3C 004:280 JLINK_WriteReg(R8, 0x00000000)  returns 0x00 (0000ms, 0900ms total)
T7F3C 004:280 JLINK_WriteReg(R9, 0x2000017C)  returns 0x00 (0000ms, 0900ms total)
T7F3C 004:280 JLINK_WriteReg(R10, 0x00000000)  returns 0x00 (0000ms, 0900ms total)
T7F3C 004:280 JLINK_WriteReg(R11, 0x00000000)  returns 0x00 (0000ms, 0900ms total)
T7F3C 004:280 JLINK_WriteReg(R12, 0x00000000)  returns 0x00 (0000ms, 0900ms total)
T7F3C 004:280 JLINK_WriteReg(R13 (SP), 0x20001000)  returns 0x00 (0000ms, 0900ms total)
T7F3C 004:280 JLINK_WriteReg(R14, 0x20000001)  returns 0x00 (0000ms, 0900ms total)
T7F3C 004:280 JLINK_WriteReg(R15 (PC), 0x20000108)  returns 0x00 (0000ms, 0900ms total)
T7F3C 004:280 JLINK_WriteReg(XPSR, 0x01000000)  returns 0x00 (0000ms, 0900ms total)
T7F3C 004:280 JLINK_WriteReg(MSP, 0x20001000)  returns 0x00 (0000ms, 0900ms total)
T7F3C 004:280 JLINK_WriteReg(PSP, 0x20001000)  returns 0x00 (0000ms, 0900ms total)
T7F3C 004:280 JLINK_WriteReg(CFBP, 0x00000000)  returns 0x00 (0000ms, 0900ms total)
T7F3C 004:280 JLINK_SetBPEx(Addr = 0x20000000, Type = 0xFFFFFFF2)  returns 0x0000000E (0000ms, 0900ms total)
T7F3C 004:280 JLINK_Go() (0002ms, 0902ms total)
T7F3C 004:282 JLINK_IsHalted()  returns FALSE (0001ms, 0903ms total)
T7F3C 004:525 JLINK_IsHalted() -- CPU_ReadMem(2 bytes @ 0x20000000)  returns TRUE (0003ms, 0905ms total)
T7F3C 004:528 JLINK_ReadReg(R15 (PC))  returns 0x20000000 (0000ms, 0902ms total)
T7F3C 004:528 JLINK_ClrBPEx(BPHandle = 0x0000000E)  returns 0x00 (0000ms, 0902ms total)
T7F3C 004:528 JLINK_ReadReg(R0)  returns 0x00000000 (0000ms, 0902ms total)
T7F3C 004:530 JLINK_WriteMem(0x20000180, 0x0400 Bytes, ...) - Data: 93 68 03 F0 80 63 B3 F1 80 6F 00 D1 10 E0 93 68 ... -- CPU_WriteMem(1024 bytes @ 0x20000180)  returns 0x400 (0013ms, 0915ms total)
T7F3C 004:543 JLINK_WriteReg(R0, 0x08001C00)  returns 0x00 (0000ms, 0915ms total)
T7F3C 004:543 JLINK_WriteReg(R1, 0x00000400)  returns 0x00 (0000ms, 0915ms total)
T7F3C 004:543 JLINK_WriteReg(R2, 0x20000180)  returns 0x00 (0000ms, 0915ms total)
T7F3C 004:543 JLINK_WriteReg(R3, 0x00000000)  returns 0x00 (0000ms, 0915ms total)
T7F3C 004:543 JLINK_WriteReg(R4, 0x00000000)  returns 0x00 (0000ms, 0915ms total)
T7F3C 004:543 JLINK_WriteReg(R5, 0x00000000)  returns 0x00 (0000ms, 0915ms total)
T7F3C 004:543 JLINK_WriteReg(R6, 0x00000000)  returns 0x00 (0000ms, 0915ms total)
T7F3C 004:543 JLINK_WriteReg(R7, 0x00000000)  returns 0x00 (0000ms, 0915ms total)
T7F3C 004:543 JLINK_WriteReg(R8, 0x00000000)  returns 0x00 (0000ms, 0915ms total)
T7F3C 004:543 JLINK_WriteReg(R9, 0x2000017C)  returns 0x00 (0000ms, 0915ms total)
T7F3C 004:543 JLINK_WriteReg(R10, 0x00000000)  returns 0x00 (0000ms, 0915ms total)
T7F3C 004:543 JLINK_WriteReg(R11, 0x00000000)  returns 0x00 (0000ms, 0915ms total)
T7F3C 004:544 JLINK_WriteReg(R12, 0x00000000)  returns 0x00 (0000ms, 0915ms total)
T7F3C 004:544 JLINK_WriteReg(R13 (SP), 0x20001000)  returns 0x00 (0000ms, 0915ms total)
T7F3C 004:544 JLINK_WriteReg(R14, 0x20000001)  returns 0x00 (0000ms, 0915ms total)
T7F3C 004:544 JLINK_WriteReg(R15 (PC), 0x20000108)  returns 0x00 (0000ms, 0915ms total)
T7F3C 004:544 JLINK_WriteReg(XPSR, 0x01000000)  returns 0x00 (0000ms, 0915ms total)
T7F3C 004:544 JLINK_WriteReg(MSP, 0x20001000)  returns 0x00 (0000ms, 0915ms total)
T7F3C 004:544 JLINK_WriteReg(PSP, 0x20001000)  returns 0x00 (0000ms, 0915ms total)
T7F3C 004:544 JLINK_WriteReg(CFBP, 0x00000000)  returns 0x00 (0000ms, 0915ms total)
T7F3C 004:544 JLINK_SetBPEx(Addr = 0x20000000, Type = 0xFFFFFFF2)  returns 0x0000000F (0000ms, 0915ms total)
T7F3C 004:544 JLINK_Go() (0002ms, 0917ms total)
T7F3C 004:546 JLINK_IsHalted()  returns FALSE (0000ms, 0917ms total)
T7F3C 004:830 JLINK_IsHalted() -- CPU_ReadMem(2 bytes @ 0x20000000)  returns TRUE (0004ms, 0921ms total)
T7F3C 004:834 JLINK_ReadReg(R15 (PC))  returns 0x20000000 (0000ms, 0917ms total)
T7F3C 004:834 JLINK_ClrBPEx(BPHandle = 0x0000000F)  returns 0x00 (0000ms, 0917ms total)
T7F3C 004:834 JLINK_ReadReg(R0)  returns 0x00000000 (0000ms, 0917ms total)
T7F3C 004:835 JLINK_WriteMem(0x20000180, 0x0400 Bytes, ...) - Data: 44 05 00 20 45 05 00 20 24 06 00 20 10 B5 17 48 ... -- CPU_WriteMem(1024 bytes @ 0x20000180)  returns 0x400 (0013ms, 0930ms total)
T7F3C 004:848 JLINK_WriteReg(R0, 0x08002000)  returns 0x00 (0000ms, 0930ms total)
T7F3C 004:848 JLINK_WriteReg(R1, 0x00000400)  returns 0x00 (0000ms, 0930ms total)
T7F3C 004:848 JLINK_WriteReg(R2, 0x20000180)  returns 0x00 (0000ms, 0930ms total)
T7F3C 004:848 JLINK_WriteReg(R3, 0x00000000)  returns 0x00 (0000ms, 0930ms total)
T7F3C 004:848 JLINK_WriteReg(R4, 0x00000000)  returns 0x00 (0000ms, 0930ms total)
T7F3C 004:848 JLINK_WriteReg(R5, 0x00000000)  returns 0x00 (0000ms, 0930ms total)
T7F3C 004:848 JLINK_WriteReg(R6, 0x00000000)  returns 0x00 (0000ms, 0930ms total)
T7F3C 004:848 JLINK_WriteReg(R7, 0x00000000)  returns 0x00 (0000ms, 0930ms total)
T7F3C 004:848 JLINK_WriteReg(R8, 0x00000000)  returns 0x00 (0000ms, 0930ms total)
T7F3C 004:848 JLINK_WriteReg(R9, 0x2000017C)  returns 0x00 (0000ms, 0930ms total)
T7F3C 004:848 JLINK_WriteReg(R10, 0x00000000)  returns 0x00 (0000ms, 0930ms total)
T7F3C 004:848 JLINK_WriteReg(R11, 0x00000000)  returns 0x00 (0000ms, 0930ms total)
T7F3C 004:848 JLINK_WriteReg(R12, 0x00000000)  returns 0x00 (0000ms, 0930ms total)
T7F3C 004:848 JLINK_WriteReg(R13 (SP), 0x20001000)  returns 0x00 (0000ms, 0930ms total)
T7F3C 004:848 JLINK_WriteReg(R14, 0x20000001)  returns 0x00 (0000ms, 0930ms total)
T7F3C 004:848 JLINK_WriteReg(R15 (PC), 0x20000108)  returns 0x00 (0000ms, 0930ms total)
T7F3C 004:848 JLINK_WriteReg(XPSR, 0x01000000)  returns 0x00 (0000ms, 0930ms total)
T7F3C 004:848 JLINK_WriteReg(MSP, 0x20001000)  returns 0x00 (0001ms, 0931ms total)
T7F3C 004:849 JLINK_WriteReg(PSP, 0x20001000)  returns 0x00 (0000ms, 0931ms total)
T7F3C 004:849 JLINK_WriteReg(CFBP, 0x00000000)  returns 0x00 (0000ms, 0931ms total)
T7F3C 004:849 JLINK_SetBPEx(Addr = 0x20000000, Type = 0xFFFFFFF2)  returns 0x00000010 (0000ms, 0931ms total)
T7F3C 004:849 JLINK_Go() (0002ms, 0933ms total)
T7F3C 004:851 JLINK_IsHalted()  returns FALSE (0000ms, 0933ms total)
T7F3C 005:107 JLINK_IsHalted() -- CPU_ReadMem(2 bytes @ 0x20000000)  returns TRUE (0004ms, 0937ms total)
T7F3C 005:111 JLINK_ReadReg(R15 (PC))  returns 0x20000000 (0000ms, 0933ms total)
T7F3C 005:111 JLINK_ClrBPEx(BPHandle = 0x00000010)  returns 0x00 (0000ms, 0933ms total)
T7F3C 005:111 JLINK_ReadReg(R0)  returns 0x00000000 (0000ms, 0933ms total)
T7F3C 005:112 JLINK_WriteMem(0x20000180, 0x0400 Bytes, ...) - Data: 00 20 02 49 08 60 70 47 24 06 00 20 B8 04 00 20 ... -- CPU_WriteMem(1024 bytes @ 0x20000180)  returns 0x400 (0013ms, 0946ms total)
T7F3C 005:125 JLINK_WriteReg(R0, 0x08002400)  returns 0x00 (0000ms, 0946ms total)
T7F3C 005:125 JLINK_WriteReg(R1, 0x00000400)  returns 0x00 (0000ms, 0946ms total)
T7F3C 005:125 JLINK_WriteReg(R2, 0x20000180)  returns 0x00 (0000ms, 0946ms total)
T7F3C 005:125 JLINK_WriteReg(R3, 0x00000000)  returns 0x00 (0000ms, 0946ms total)
T7F3C 005:125 JLINK_WriteReg(R4, 0x00000000)  returns 0x00 (0000ms, 0946ms total)
T7F3C 005:125 JLINK_WriteReg(R5, 0x00000000)  returns 0x00 (0000ms, 0946ms total)
T7F3C 005:125 JLINK_WriteReg(R6, 0x00000000)  returns 0x00 (0000ms, 0946ms total)
T7F3C 005:125 JLINK_WriteReg(R7, 0x00000000)  returns 0x00 (0000ms, 0946ms total)
T7F3C 005:125 JLINK_WriteReg(R8, 0x00000000)  returns 0x00 (0000ms, 0946ms total)
T7F3C 005:125 JLINK_WriteReg(R9, 0x2000017C)  returns 0x00 (0000ms, 0946ms total)
T7F3C 005:125 JLINK_WriteReg(R10, 0x00000000)  returns 0x00 (0000ms, 0946ms total)
T7F3C 005:125 JLINK_WriteReg(R11, 0x00000000)  returns 0x00 (0000ms, 0946ms total)
T7F3C 005:125 JLINK_WriteReg(R12, 0x00000000)  returns 0x00 (0000ms, 0946ms total)
T7F3C 005:125 JLINK_WriteReg(R13 (SP), 0x20001000)  returns 0x00 (0000ms, 0946ms total)
T7F3C 005:125 JLINK_WriteReg(R14, 0x20000001)  returns 0x00 (0000ms, 0946ms total)
T7F3C 005:125 JLINK_WriteReg(R15 (PC), 0x20000108)  returns 0x00 (0000ms, 0946ms total)
T7F3C 005:126 JLINK_WriteReg(XPSR, 0x01000000)  returns 0x00 (0000ms, 0947ms total)
T7F3C 005:126 JLINK_WriteReg(MSP, 0x20001000)  returns 0x00 (0000ms, 0947ms total)
T7F3C 005:126 JLINK_WriteReg(PSP, 0x20001000)  returns 0x00 (0000ms, 0947ms total)
T7F3C 005:126 JLINK_WriteReg(CFBP, 0x00000000)  returns 0x00 (0000ms, 0947ms total)
T7F3C 005:126 JLINK_SetBPEx(Addr = 0x20000000, Type = 0xFFFFFFF2)  returns 0x00000011 (0000ms, 0947ms total)
T7F3C 005:126 JLINK_Go() (0001ms, 0948ms total)
T7F3C 005:127 JLINK_IsHalted()  returns FALSE (0001ms, 0949ms total)
T7F3C 005:385 JLINK_IsHalted() -- CPU_ReadMem(2 bytes @ 0x20000000)  returns TRUE (0003ms, 0951ms total)
T7F3C 005:388 JLINK_ReadReg(R15 (PC))  returns 0x20000000 (0000ms, 0948ms total)
T7F3C 005:388 JLINK_ClrBPEx(BPHandle = 0x00000011)  returns 0x00 (0000ms, 0948ms total)
T7F3C 005:388 JLINK_ReadReg(R0)  returns 0x00000000 (0001ms, 0949ms total)
T7F3C 005:390 JLINK_WriteMem(0x20000180, 0x0400 Bytes, ...) - Data: 00 F0 18 F8 01 28 07 D1 01 F0 7C FA 10 20 00 F0 ... -- CPU_WriteMem(1024 bytes @ 0x20000180)  returns 0x400 (0013ms, 0962ms total)
T7F3C 005:403 JLINK_WriteReg(R0, 0x08002800)  returns 0x00 (0000ms, 0962ms total)
T7F3C 005:403 JLINK_WriteReg(R1, 0x00000400)  returns 0x00 (0000ms, 0962ms total)
T7F3C 005:403 JLINK_WriteReg(R2, 0x20000180)  returns 0x00 (0000ms, 0962ms total)
